Circuit: * C:\Repositories\Alpha-Electrical\PCBs\JukkaInterface2(Amaranth 30-0008)\Simulations\JukkaRev2_Model2A(020720).asc

Direct Newton iteration failed to find .op point.  (Use ".option noopiter" to skip.)
Starting Gmin stepping
Gmin = 10
Gmin = 1.07374
Gmin = 0.115292
Gmin = 0.0123794
Gmin = 0.00132923
Gmin = 0.000142725
Gmin = 1.5325e-005
Gmin = 1.6455e-006
Gmin = 1.76685e-007
Gmin = 1.89714e-008
vernier = 0.5
vernier = 0.25
vernier = 0.125
vernier = 0.0625
vernier = 0.03125
vernier = 0.015625
vernier = 0.0078125
vernier = 0.00390625
Gmin = 1.51771e-008
vernier = 0.00195313
vernier = 0.000976563
vernier = 0.000488281
Gmin = 0
Gmin stepping failed

Starting source stepping with srcstepmethod=0
Source Step = 3.0303%
vernier = 0.25
Source Step = 0.0177557%
Source Step = 0.0473485%
Source Step = 0.0769413%
Source Step = 0.106534%
Source Step = 0.136127%
Source Step = 0.16572%
vernier = 0.00146484
Source Step = 0.20715%
Source Step = 0.251539%
Source Step = 0.295928%
Source Step = 0.340317%
Source Step = 0.384706%
vernier = 0.00219727
Source Step = 0.444632%
Source Step = 0.511216%
Source Step = 0.577799%
Source Step = 0.644383%
Source Step = 0.710967%
vernier = 0.0032959
Source Step = 0.797526%
Source Step = 0.897402%
Source Step = 0.997277%
Source Step = 1.09715%
Source Step = 1.19703%
vernier = 0.00494385
Source Step = 1.32187%
Source Step = 1.47169%
Source Step = 1.6215%
Source Step = 1.77131%
Source Step = 1.92113%
vernier = 0.00741577
Source Step = 2.1009%
Source Step = 2.32562%
Source Step = 2.55034%
Source Step = 2.77507%
Source Step = 2.99979%
vernier = 0.0111237
Source Step = 3.25821%
Source Step = 3.59529%
Source Step = 3.93237%
Source Step = 4.26946%
Source Step = 4.60654%
vernier = 0.0166855
Source Step = 4.97732%
Source Step = 5.48295%
Source Step = 5.98857%
Source Step = 6.49419%
Source Step = 6.99981%
vernier = 0.0250282
Source Step = 7.53071%
Source Step = 8.28914%
Source Step = 9.04757%
Source Step = 9.806%
Source Step = 10.5644%
Source Step = 11.3229%
vernier = 0.0375423
Source Step = 12.4605%
Source Step = 13.5982%
Source Step = 14.7358%
Source Step = 15.8735%
Source Step = 17.0111%
vernier = 0.0563135
Source Step = 18.6607%
Source Step = 20.3672%
Source Step = 22.0736%
Source Step = 23.7801%
Source Step = 25.4866%
vernier = 0.0844703
Source Step = 27.8756%
Source Step = 30.4353%
Source Step = 32.995%
Source Step = 35.5547%
Source Step = 38.1144%
vernier = 0.126705
Source Step = 41.57%
Source Step = 45.4096%
Source Step = 49.2492%
Source Step = 53.0887%
Source Step = 56.9283%
vernier = 0.190058
Source Step = 61.9197%
Source Step = 67.679%
Source Step = 73.4384%
Source Step = 79.1977%
Source Step = 84.9571%
vernier = 0.285087
Source Step = 92.1562%
Source Step = 96.4791%
Source Step = 96.5128%
Source Step = 96.5466%
Source Step = 96.5803%
Source Step = 96.6141%
Source Step = 96.6478%
Source Step = 96.6816%
Source Step = 96.7153%
Source Step = 96.7491%
Source Step = 96.7828%
Source Step = 96.8166%
Source Step = 96.8503%
Source Step = 96.8841%
Source Step = 96.9178%
Source Step = 96.9515%
Source Step = 96.9853%
Source Step = 97.019%
Source Step = 97.0528%
Source Step = 97.0865%
Source Step = 97.1203%
Source Step = 97.154%
Source Step = 97.1878%
Source Step = 97.2215%
Source Step = 97.2553%
Source Step = 97.289%
Source Step = 97.3228%
Source Step = 97.3565%
Source Step = 97.3902%
Source Step = 97.424%
Source Step = 97.4577%
Source Step = 97.4915%
Source Step = 97.5252%
Source Step = 97.559%
Source Step = 97.5927%
Source Step = 97.6265%
Source Step = 97.6602%
Source Step = 97.694%
Source Step = 97.7277%
Source Step = 97.7615%
Source Step = 97.7952%
Source Step = 97.8289%
Source Step = 97.8627%
Source Step = 97.8964%
Source Step = 97.9302%
Source Step = 97.9639%
Source Step = 97.9977%
Source Step = 98.0314%
Source Step = 98.0652%
Source Step = 98.0989%
Source Step = 98.1327%
Source Step = 98.1664%
Source Step = 98.2002%
Source Step = 98.2339%
Source Step = 98.2676%
Source Step = 98.3014%
Source Step = 98.3351%
Source Step = 98.3689%
Source Step = 98.4026%
Source Step = 98.4364%
Source Step = 98.4701%
Source Step = 98.5039%
Source Step = 98.5376%
Source Step = 98.5714%
Source Step = 98.6051%
Source Step = 98.6389%
Source Step = 98.6726%
Source Step = 98.7063%
Source Step = 98.7401%
Source Step = 98.7738%
Source Step = 98.8076%
Source Step = 98.8413%
Source Step = 98.8751%
Source Step = 98.9088%
Source Step = 98.9426%
Source Step = 98.9763%
Source Step = 99.0101%
Source Step = 99.0438%
Source Step = 99.0776%
Source Step = 99.1113%
Source Step = 99.145%
Source Step = 99.1788%
Source Step = 99.2125%
Source Step = 99.2463%
Source Step = 99.28%
Source Step = 99.3138%
Source Step = 99.3475%
Source Step = 99.3813%
Source Step = 99.415%
Source Step = 99.4488%
Source Step = 99.4825%
Source Step = 99.5163%
Source Step = 99.55%
Source Step = 99.5837%
Source Step = 99.6175%
Source Step = 99.6512%
Source Step = 99.685%
Source Step = 99.7187%
Source Step = 99.7525%
Source Step = 99.7862%
Source Step = 99.82%
Source Step = 99.8537%
Source Step = 99.8875%
Source Step = 99.9212%
Source Step = 99.9549%
Source Step = 99.9887%
Source Step = 100%
Source Step = 100%
Source Step = 100%
Source Step = 100%
Source Step = 100%
Source Step = 100%
Source Step = 100%
Source Step = 100%
Source Step = 100%
Source Step = 100%
Source Step = 100%
Source Step = 100%
Source stepping aborted.
Starting source stepping with srcstepmethod=1
Source Step = 3.0303%
Source Step = 33.3333%
Source Step = 63.6364%
Source Step = 93.9394%
Source Step = 99.0059%
Source Step = 99.0355%
Source Step = 99.0651%
Source Step = 99.0947%
Source Step = 99.1243%
Source Step = 99.1539%
Source Step = 99.1835%
Source Step = 99.2131%
Source Step = 99.2427%
Source Step = 99.2723%
Source Step = 99.3018%
Source Step = 99.3314%
Source Step = 99.361%
Source Step = 99.3906%
Source Step = 99.4202%
Source Step = 99.4498%
Source Step = 99.4794%
Source Step = 99.509%
Source Step = 99.5386%
Source Step = 99.5682%
Source Step = 99.5978%
Source Step = 99.6274%
Source Step = 99.657%
Source Step = 99.6866%
Source Step = 99.7161%
Source Step = 99.7457%
Source Step = 99.7753%
Source Step = 99.8049%
Source Step = 99.8345%
Source Step = 99.8641%
Source Step = 99.8937%
Source Step = 99.9233%
Source Step = 99.9529%
Source Step = 99.9825%
Source Step = 100%
Source Step = 100%
Source Step = 100%
Source Step = 100%
Source Step = 100%
Source Step = 100%
Source Step = 100%
Source Step = 100%
Source Step = 100%
Source Step = 100%
Source Step = 100%
Source Step = 100%
Source Step = 100%
Source Step = 100%
Source Step = 100%
Source Step = 100%
Source Step = 100%
Source Step = 100%
Source Step = 100%
Source Step = 100%
Source Step = 100%
Source Step = 100%
Source Step = 100%
Source Step = 100%
Source Step = 100%
Source Step = 100%
Source Step = 100%
Source Step = 100%
Source Step = 100%
Source Step = 100%
Source Step = 100%
Source Step = 100%
Source Step = 100%
Source Step = 100%
Source Step = 100%
Source Step = 100%
Source Step = 100%
Source Step = 100%
Source Step = 100%
Source Step = 100%
Source Step = 100%
Source Step = 100%
Source Step = 100%
Source Step = 100%
Source Step = 100%
Source Step = 100%
Source Step = 100%
Source Step = 100%
Source Step = 100%
Source Step = 100%
Source Step = 100%
Source Step = 100%
Source Step = 100%
Source Step = 100%
Source Step = 100%
Source Step = 100%
Source Step = 100%
Source Step = 100%
Source Step = 100%
Source Step = 100%
Source Step = 100%
Source Step = 100%
Source Step = 100%
Source Step = 100%
Source Step = 100%
Source Step = 100%
Source Step = 100%
Source Step = 100%
Source Step = 100%
Source Step = 100%
Source Step = 100%
Source Step = 100%
Source Step = 100%
Source Step = 100%
Source Step = 100%
Source Step = 100%
Source Step = 100%
Source Step = 100%
Source Step = 100%
Source Step = 100%
Source Step = 100%
Source Step = 100%
Source Step = 100%
Source Step = 100%
Source Step = 100%
Source Step = 100%
Source Step = 100%
Source Step = 100%
Source Step = 100%
Source Step = 100%
Source Step = 100%
Source Step = 100%
Source Step = 100%
Source Step = 100%
Source Step = 100%
Source Step = 100%
Source Step = 100%
Source Step = 100%
Source Step = 100%
Source Step = 100%
Source Step = 100%
Source Step = 100%
Source Step = 100%
Source Step = 100%
Source Step = 100%
Source Step = 100%
Source Step = 100%
Source Step = 100%
Source Step = 100%
Source Step = 100%
Source Step = 100%
Source Step = 100%
Source Step = 100%
Source Step = 100%
Source Step = 100%
Source Step = 100%
Source Step = 100%
Source Step = 100%
Source Step = 100%
Source Step = 100%
Source Step = 100%
Source Step = 100%
Source Step = 100%
Source Step = 100%
Source Step = 100%
Source Step = 100%
Source Step = 100%
Source Step = 100%
Source Step = 100%
Source Step = 100%
Source Step = 100%
Source Step = 100%
Source Step = 100%
Source Step = 100%
Source Step = 100%
Source Step = 100%
Source Step = 100%
Source Step = 100%
Source Step = 100%
Source Step = 100%
Source Step = 100%
Source Step = 100%
Source Step = 100%
Source Step = 100%
Source Step = 100%
Source Step = 100%
Source Step = 100%
Source Step = 100%
Source Step = 100%
Source Step = 100%
Source Step = 100%
Source Step = 100%
Source Step = 100%
Source Step = 100%
Source Step = 100%
Source Step = 100%
Source Step = 100%
Source Step = 100%
Source Step = 100%
Source Step = 100%
Source Step = 100%
Source Step = 100%
Source Step = 100%
Source Step = 100%
Source Step = 100%
Source Step = 100%
Source Step = 100%
Source Step = 100%
Source Step = 100%
Source Step = 100%
Source Step = 100%
Source Step = 100%
Source Step = 100%
Source Step = 100%
Source Step = 100%
Source Step = 100%
Source Step = 100%
Source Step = 100%
Source Step = 100%
Source Step = 100%
Source Step = 100%
Source Step = 100%
Source Step = 100%
Source Step = 100%
Source Step = 100%
Source Step = 100%
Source Step = 100%
Source Step = 100%
Source Step = 100%
Source Step = 100%
Source Step = 100%
Source Step = 100%
Source Step = 100%
Source Step = 100%
Source Step = 100%
Source Step = 100%
Source Step = 100%
Source Step = 100%
Source Step = 100%
Source Step = 100%
Source Step = 100%
Source Step = 100%
Source Step = 100%
Source Step = 100%
Source Step = 100%
Source Step = 100%
Source Step = 100%
Source Step = 100%
Source Step = 100%
Source Step = 100%
Source Step = 100%
Source Step = 100%
Source Step = 100%
Source Step = 100%
Source Step = 100%
Source Step = 100%
Source Step = 100%
Source Step = 100%
Source Step = 100%
Source Step = 100%
Source Step = 100%
Source Step = 100%
Source Step = 100%
Source Step = 100%
Source Step = 100%
Source Step = 100%
Source Step = 100%
Source Step = 100%
Source Step = 100%
Source Step = 100%
Source Step = 100%
Source Step = 100%
Source Step = 100%
Source Step = 100%
Source Step = 100%
Source Step = 100%
Source Step = 100%
Source Step = 100%
Source Step = 100%
Source Step = 100%
Source Step = 100%
Source Step = 100%
Source Step = 100%
Source Step = 100%
Source Step = 100%
Source Step = 100%
Source Step = 100%
Source Step = 100%
Source Step = 100%
Source Step = 100%
Source Step = 100%
Source Step = 100%
Source Step = 100%
Source Step = 100%
Source Step = 100%
Source Step = 100%
Source Step = 100%
Source stepping aborted.
Pseudo Transient succeeded in finding the operating point at 371.885 ms.
Semiconductor Device Operating Points:
                        --- Diodes ---
Name:   d:u10:11    d:u10:10     d:u10:9     d:u10:4     d:u10:7
Model:   u10:io      u10:din    u10:ovp2    u10:ovp2    u10:ovp1
Id:     -1.29e-19    2.38e-24   -1.67e-11   -1.66e-11   -1.67e-11
Vd:     -1.28e-07    2.38e-12   -6.68e+00   -6.62e+00   -6.68e+00
Req:     1.00e-12    1.00e-12    2.50e-12    2.50e-12    2.50e-12
CAP:     0.00e+00    0.00e+00    0.00e+00    0.00e+00    0.00e+00

Name:    d:u10:2     d:u10:1     d:u10:8     d:u10:6     d:u10:5
Model:  u10:ovp1     u10:1na     u10:1na      u10:x       u10:x
Id:     -1.66e-11    4.00e-10    4.00e-10   -6.68e-09   -6.62e-09
Vd:     -6.62e+00    6.62e+00    6.62e+00   -6.68e+00   -6.62e+00
Req:     2.50e-12    8.00e-10    8.00e-10    1.00e-09    1.00e-09
CAP:     0.00e+00    0.00e+00    0.00e+00    0.00e+00    0.00e+00

Name:    d:u9:11     d:u9:10     d:u9:9      d:u9:4      d:u9:7
Model:    u9:io      u9:din      u9:ovp2     u9:ovp2     u9:ovp1
Id:     -1.29e-19    2.29e-24   -1.67e-11   -1.66e-11   -1.67e-11
Vd:     -1.29e-07    2.29e-12   -6.68e+00   -6.62e+00   -6.68e+00
Req:     1.00e-12    1.00e-12    2.50e-12    2.50e-12    2.50e-12
CAP:     0.00e+00    0.00e+00    0.00e+00    0.00e+00    0.00e+00

Name:    d:u9:2      d:u9:1      d:u9:8      d:u9:6      d:u9:5
Model:   u9:ovp1     u9:1na      u9:1na       u9:x        u9:x
Id:     -1.66e-11    4.00e-10    4.00e-10   -6.68e-09   -6.62e-09
Vd:     -6.62e+00    6.62e+00    6.62e+00   -6.68e+00   -6.62e+00
Req:     2.50e-12    8.00e-10    8.00e-10    1.00e-09    1.00e-09
CAP:     0.00e+00    0.00e+00    0.00e+00    0.00e+00    0.00e+00

Name:    d:u8:7      d:u8:5      d:u8:1      d:u8:10     d:u8:9
Model:  u8:dbias    u8:dbias   u8:dantisat   u8:din     u8:dburn
Id:      1.01e-10    1.01e-10    2.26e-10    2.20e-09    2.12e-04
Vd:      5.01e+01    5.01e+01    6.79e-03    6.59e-05    5.22e+01
Req:     1.00e-08    1.00e-08    3.33e-08    3.33e-05    1.00e-02
CAP:     0.00e+00    0.00e+00    0.00e+00    0.00e+00    0.00e+00

Name:    d:u8:4      d:u8:3      d:u8:2      d:u8:6      d:u7:7
Model:    u8:dx       u8:dx       u8:dx       u8:dx     u7:dbias
Id:     -2.17e-12   -5.01e-11   -5.01e-11   -2.17e-12    1.01e-10
Vd:     -2.15e+00   -5.01e+01   -5.01e+01   -2.15e+00    5.01e+01
Req:     1.00e+12    1.00e+12    1.00e+12    1.00e+12    1.00e-08
CAP:     0.00e+00    0.00e+00    0.00e+00    0.00e+00    0.00e+00

Name:    d:u7:5      d:u7:1      d:u7:10     d:u7:9      d:u7:4
Model:  u7:dbias   u7:dantisat   u7:din     u7:dburn      u7:dx
Id:      1.01e-10    2.26e-10    2.20e-09    2.12e-04   -2.17e-12
Vd:      5.01e+01    6.78e-03    6.59e-05    5.22e+01   -2.15e+00
Req:     1.00e-08    3.33e-08    3.33e-05    1.00e-02    1.00e+12
CAP:     0.00e+00    0.00e+00    0.00e+00    0.00e+00    0.00e+00

Name:    d:u7:3      d:u7:2      d:u7:6      d:u6:7      d:u6:5
Model:    u7:dx       u7:dx       u7:dx     u6:dbias    u6:dbias
Id:     -5.01e-11   -5.01e-11   -2.17e-12    1.01e-10    1.01e-10
Vd:     -5.01e+01   -5.01e+01   -2.15e+00    4.61e+01    4.61e+01
Req:     1.00e+12    1.00e+12    1.00e+12    1.00e-08    1.00e-08
CAP:     0.00e+00    0.00e+00    0.00e+00    0.00e+00    0.00e+00

Name:    d:u6:1      d:u6:10     d:u6:9      d:u6:4      d:u6:3
Model: u6:dantisat   u6:din     u6:dburn      u6:dx       u6:dx
Id:     -4.06e-10    1.67e-09    2.12e-04   -6.15e-12   -4.61e-11
Vd:     -1.22e-02    5.00e-05    5.22e+01   -6.15e+00   -4.61e+01
Req:     3.33e-08    3.33e-05    1.00e-02    1.00e+12    1.00e+12
CAP:     0.00e+00    0.00e+00    0.00e+00    0.00e+00    0.00e+00

Name:    d:u6:2      d:u6:6      d:u5:7      d:u5:5      d:u5:1
Model:    u6:dx       u6:dx     u5:dbias    u5:dbias   u5:dantisat
Id:     -4.61e-11   -6.15e-12    1.01e-10    1.01e-10    3.71e-10
Vd:     -4.61e+01   -6.15e+00    3.61e+01    3.61e+01    1.11e-02
Req:     1.00e+12    1.00e+12    1.00e-08    1.00e-08    3.33e-08
CAP:     0.00e+00    0.00e+00    0.00e+00    0.00e+00    0.00e+00

Name:    d:u5:10     d:u5:9      d:u5:4      d:u5:3      d:u5:2
Model:   u5:din     u5:dburn      u5:dx       u5:dx       u5:dx
Id:      9.97e-10    2.12e-04   -1.62e-11   -3.61e-11   -3.61e-11
Vd:      2.99e-05    5.22e+01   -1.61e+01   -3.61e+01   -3.61e+01
Req:     3.33e-05    1.00e-02    1.00e+12    1.00e+12    1.00e+12
CAP:     0.00e+00    0.00e+00    0.00e+00    0.00e+00    0.00e+00

Name:    d:u5:6      d:u4:7      d:u4:5      d:u4:1      d:u4:10
Model:    u5:dx     u4:dbias    u4:dbias   u4:dantisat   u4:din
Id:     -1.62e-11    1.01e-10    1.01e-10   -4.06e-10   -2.23e-09
Vd:     -1.61e+01    2.10e+00    2.10e+00   -1.22e-02   -6.70e-05
Req:     1.00e+12    1.00e-08    1.00e-08    3.33e-08    3.33e-05
CAP:     0.00e+00    0.00e+00    0.00e+00    0.00e+00    0.00e+00

Name:    d:u4:9      d:u4:4      d:u4:3      d:u4:2      d:u4:6
Model:  u4:dburn      u4:dx       u4:dx       u4:dx       u4:dx
Id:      2.12e-04   -5.02e-11   -2.10e-12   -2.10e-12   -5.02e-11
Vd:      5.22e+01   -5.01e+01   -2.10e+00   -2.10e+00   -5.01e+01
Req:     1.00e-02    1.00e+12    1.00e+12    1.00e+12    1.00e+12
CAP:     0.00e+00    0.00e+00    0.00e+00    0.00e+00    0.00e+00

Name:    d:u3:7      d:u3:5      d:u3:1      d:u3:10     d:u3:9
Model:  u3:dbias    u3:dbias   u3:dantisat   u3:din     u3:dburn
Id:      1.01e-10    1.01e-10   -4.06e-10   -2.23e-09    2.12e-04
Vd:      2.10e+00    2.10e+00   -1.22e-02   -6.70e-05    5.22e+01
Req:     1.00e-08    1.00e-08    3.33e-08    3.33e-05    1.00e-02
CAP:     0.00e+00    0.00e+00    0.00e+00    0.00e+00    0.00e+00

Name:    d:u3:4      d:u3:3      d:u3:2      d:u3:6      d:u2:7
Model:    u3:dx       u3:dx       u3:dx       u3:dx     u2:dbias
Id:     -5.02e-11   -2.10e-12   -2.10e-12   -5.02e-11    1.01e-10
Vd:     -5.01e+01   -2.10e+00   -2.10e+00   -5.01e+01    6.10e+00
Req:     1.00e+12    1.00e+12    1.00e+12    1.00e+12    1.00e-08
CAP:     0.00e+00    0.00e+00    0.00e+00    0.00e+00    0.00e+00

Name:    d:u2:5      d:u2:1      d:u2:10     d:u2:9      d:u2:4
Model:  u2:dbias   u2:dantisat   u2:din     u2:dburn      u2:dx
Id:      1.01e-10    2.26e-10   -1.70e-09    2.12e-04   -4.61e-11
Vd:      6.10e+00    6.77e-03   -5.11e-05    5.22e+01   -4.61e+01
Req:     1.00e-08    3.33e-08    3.33e-05    1.00e-02    1.00e+12
CAP:     0.00e+00    0.00e+00    0.00e+00    0.00e+00    0.00e+00

Name:    d:u2:3      d:u2:2      d:u2:6      d:u1:7      d:u1:5
Model:    u2:dx       u2:dx       u2:dx     u1:dbias    u1:dbias
Id:     -6.11e-12   -6.11e-12   -4.61e-11    1.01e-10    1.01e-10
Vd:     -6.10e+00   -6.10e+00   -4.61e+01    1.61e+01    1.61e+01
Req:     1.00e+12    1.00e+12    1.00e+12    1.00e-08    1.00e-08
CAP:     0.00e+00    0.00e+00    0.00e+00    0.00e+00    0.00e+00

Name:    d:u1:1      d:u1:10     d:u1:9      d:u1:4      d:u1:3
Model: u1:dantisat   u1:din     u1:dburn      u1:dx       u1:dx
Id:     -6.12e-10   -1.05e-09    2.12e-04   -3.62e-11   -1.61e-11
Vd:     -1.84e-02   -3.15e-05    5.22e+01   -3.61e+01   -1.61e+01
Req:     3.33e-08    3.33e-05    1.00e-02    1.00e+12    1.00e+12
CAP:     0.00e+00    0.00e+00    0.00e+00    0.00e+00    0.00e+00

Name:    d:u1:2      d:u1:6
Model:    u1:dx       u1:dx
Id:     -1.61e-11   -3.62e-11
Vd:     -1.61e+01   -3.61e+01
Req:     1.00e+12    1.00e+12
CAP:     0.00e+00    0.00e+00

                        --- VDMOSFET Transistors ---
Name:        m:u8:6      m:u8:5      m:u7:6      m:u7:5      m:u6:6
Model:       u8:noxn     u8:poxn     u7:noxn     u7:poxn     u6:noxn
Id:          4.01e-03   -5.01e-11    4.00e-03   -5.01e-11    2.62e-11
Vgs:         1.22e+00   -8.10e-01    1.22e+00   -8.11e-01    6.48e-01
Vds:         2.15e+00   -5.01e+01    2.15e+00   -5.01e+01    2.62e+01
Vth:         8.30e-01   -8.30e-01    8.30e-01   -8.30e-01    8.30e-01
Gm:          2.07e-02    0.00e+00    2.07e-02    0.00e+00    0.00e+00
Gds:         0.00e+00    0.00e+00    0.00e+00    0.00e+00    0.00e+00
Cgs:         0.00e+00    0.00e+00    0.00e+00    0.00e+00    0.00e+00
Cgd:         0.00e+00    0.00e+00    0.00e+00    0.00e+00    0.00e+00
Cbody:       0.00e+00    0.00e+00    0.00e+00    0.00e+00    0.00e+00

Name:        m:u6:5      m:u5:6      m:u5:5      m:u4:6      m:u4:5
Model:       u6:poxn     u5:noxn     u5:poxn     u4:noxn     u4:poxn
Id:         -4.00e-03    7.14e-03   -5.01e-11    5.02e-11   -3.99e-03
Vgs:        -1.38e+00    1.35e+00   -6.80e-01    6.49e-01   -1.38e+00
Vds:        -2.61e+01    2.15e+00   -5.01e+01    5.01e+01   -2.10e+00
Vth:        -8.30e-01    8.30e-01   -8.30e-01    8.30e-01   -8.30e-01
Gm:          1.45e-02    2.76e-02    0.00e+00    0.00e+00    1.45e-02
Gds:         0.00e+00    0.00e+00    0.00e+00    0.00e+00    0.00e+00
